
T365C 000:045 SEGGER J-Link V6.10i Log File (0001ms, 0023ms total)
T365C 000:045 DLL Compiled: Oct 25 2016 19:31:51 (0001ms, 0023ms total)
T365C 000:045 Logging started @ 2018-07-26 13:33 (0001ms, 0023ms total)
T365C 000:046 JLINK_SetWarnOutHandler(...) (0000ms, 0023ms total)
T365C 000:046 JLINK_OpenEx(...)
Firmware: J-Link V9 compiled Jul 19 2017 16:11:45
Hardware: V9.40
S/N: 59409946
Feature(s): RDI, GDB, FlashDL, FlashBP, JFlashWEBSRV Webserver running on local port 19080 (0013ms, 0036ms total)
T365C 000:046   returns O.K. (0013ms, 0036ms total)
T365C 000:059 JLINK_SetErrorOutHandler(...) (0000ms, 0036ms total)
T365C 000:059 JLINK_ExecCommand("ProjectFile = "D:\MEMS429_16470\MDK-ARM\JLinkSettings.ini"", ...).   returns 0x00 (0100ms, 0136ms total)
T365C 000:159 JLINK_ExecCommand("Device = STM32F429VGTx", ...). Device "STM32F429VG" selected.  returns 0x00 (0001ms, 0137ms total)
T365C 000:160 JLINK_ExecCommand("DisableConnectionTimeout", ...).   returns 0x01 (0000ms, 0137ms total)
T365C 000:160 JLINK_GetHardwareVersion()  returns 0x16F30 (0000ms, 0137ms total)
T365C 000:160 JLINK_GetDLLVersion()  returns 61009 (0000ms, 0137ms total)
T365C 000:160 JLINK_GetFirmwareString(...) (0000ms, 0137ms total)
T365C 000:160 JLINK_GetDLLVersion()  returns 61009 (0000ms, 0137ms total)
T365C 000:160 JLINK_GetCompileDateTime() (0000ms, 0137ms total)
T365C 000:160 JLINK_GetFirmwareString(...) (0000ms, 0137ms total)
T365C 000:160 JLINK_GetHardwareVersion()  returns 0x16F30 (0000ms, 0137ms total)
T365C 000:160 JLINK_TIF_Select(JLINKARM_TIF_SWD)  returns 0x00 (0001ms, 0138ms total)
T365C 000:161 JLINK_SetSpeed(5000) (0000ms, 0138ms total)
T365C 000:161 JLINK_GetId() >0x108 TIF>Found SWD-DP with ID 0x2BA01477 >0x0D TIF> >0x28 TIF> >0x0D TIF> >0x28 TIF> >0x0D TIF> >0x28 TIF> >0x0D TIF> >0x28 TIF> >0x0D TIF> >0x21 TIF> >0x0D TIF> >0x28 TIF> >0x0D TIF> >0x28 TIF> >0x0D TIF> >0x28 TIF> >0x0D TIF> >0x21 TIF> >0x0D TIF> >0x21 TIF> >0x0D TIF> >0x28 TIF> >0x0D TIF> >0x21 TIF> >0x0D TIF> >0x21 TIF> >0x0D TIF> >0x28 TIF> >0x0D TIF> >0x21 TIF> >0x0D TIF> >0x21 TIF> >0x0D TIF> >0x28 TIF> >0x0D TIF> >0x21 TIF> >0x0D TIF> >0x21 TIF> >0x0D TIF>
 >0x28 TIF> >0x0D TIF> >0x21 TIF> >0x0D TIF> >0x21 TIF> >0x0D TIF> >0x28 TIF> >0x0D TIF> >0x21 TIF> >0x0D TIF> >0x21 TIF> >0x0D TIF> >0x28 TIF> >0x0D TIF> >0x21 TIF> >0x0D TIF> >0x21 TIF> >0x108 TIF>Found SWD-DP with ID 0x2BA01477 >0x0D TIF> >0x28 TIF> >0x0D TIF> >0x28 TIF> >0x0D TIF> >0x28 TIF> >0x0D TIF> >0x28 TIF> >0x0D TIF> >0x21 TIF> >0x0D TIF> >0x28 TIF> >0x0D TIF> >0x28 TIF> >0x0D TIF> >0x21 TIF> >0x0D TIF> >0x21 TIF> >0x0D TIF> >0x21 TIF>AP-IDR: 0x24770011, Type: AHB-AP >0x0D TIF> >0x28 TIF>
 >0x0D TIF> >0x28 TIF> >0x0D TIF> >0x28 TIF> >0x0D TIF> >0x21 TIF> >0x0D TIF> >0x21 TIF> >0x0D TIF> >0x28 TIF> >0x0D TIF> >0x21 TIF> >0x0D TIF> >0x21 TIF>Found Cortex-M4 r0p1, Little endian. -- CPU_ReadMem(4 bytes @ 0xE000EDF0) -- CPU_ReadMem(4 bytes @ 0xE0002000)FPUnit: 6 code (BP) slots and 2 literal slots -- CPU_ReadMem(4 bytes @ 0xE000EDFC) -- CPU_WriteMem(4 bytes @ 0xE000EDFC) -- CPU_ReadMem(4 bytes @ 0xE0001000) -- CPU_WriteMem(4 bytes @ 0xE0001000) -- CPU_ReadMem(4 bytes @ 0xE000ED88)
 -- CPU_WriteMem(4 bytes @ 0xE000ED88) -- CPU_ReadMem(4 bytes @ 0xE000ED88) -- CPU_WriteMem(4 bytes @ 0xE000ED88)CoreSight components:ROMTbl 0 @ E00FF000 -- CPU_ReadMem(16 bytes @ 0xE00FF000) -- CPU_ReadMem(16 bytes @ 0xE000EFF0) -- CPU_ReadMem(16 bytes @ 0xE000EFE0)ROMTbl 0 [0]: FFF0F000, CID: B105E00D, PID: 000BB00C SCS -- CPU_ReadMem(16 bytes @ 0xE0001FF0) -- CPU_ReadMem(16 bytes @ 0xE0001FE0)ROMTbl 0 [1]: FFF02000, CID: B105E00D, PID: 003BB002 DWT -- CPU_ReadMem(16 bytes @ 0xE0002FF0)
 -- CPU_ReadMem(16 bytes @ 0xE0002FE0)ROMTbl 0 [2]: FFF03000, CID: B105E00D, PID: 002BB003 FPB -- CPU_ReadMem(16 bytes @ 0xE0000FF0) -- CPU_ReadMem(16 bytes @ 0xE0000FE0)ROMTbl 0 [3]: FFF01000, CID: B105E00D, PID: 003BB001 ITM -- CPU_ReadMem(16 bytes @ 0xE00FF010) -- CPU_ReadMem(16 bytes @ 0xE0040FF0) -- CPU_ReadMem(16 bytes @ 0xE0040FE0)ROMTbl 0 [4]: FFF41000, CID: B105900D, PID: 000BB9A1 TPIU -- CPU_ReadMem(16 bytes @ 0xE0041FF0) -- CPU_ReadMem(16 bytes @ 0xE0041FE0)
ROMTbl 0 [5]: FFF42000, CID: B105900D, PID: 000BB925 ETM >0x0D TIF> >0x21 TIF>  returns 0x2BA01477 (0022ms, 0160ms total)
T365C 000:183 JLINK_GetDLLVersion()  returns 61009 (0000ms, 0160ms total)
T365C 000:183 JLINK_CORE_GetFound()  returns 0xE0000FF (0000ms, 0160ms total)
T365C 000:183 JLINK_GetDebugInfo(0x100) -- Value=0xE00FF000  returns 0x00 (0000ms, 0160ms total)
T365C 000:183 JLINK_GetDebugInfo(0x100) -- Value=0xE00FF000  returns 0x00 (0000ms, 0160ms total)
T365C 000:183 JLINK_GetDebugInfo(0x101) -- Value=0xE0041000  returns 0x00 (0000ms, 0160ms total)
T365C 000:183 JLINK_GetDebugInfo(0x102) -- Value=0x00000000  returns 0x00 (0000ms, 0160ms total)
T365C 000:183 JLINK_GetDebugInfo(0x103) -- Value=0xE0040000  returns 0x00 (0000ms, 0160ms total)
T365C 000:183 JLINK_GetDebugInfo(0x104) -- Value=0xE0000000  returns 0x00 (0000ms, 0160ms total)
T365C 000:183 JLINK_GetDebugInfo(0x105) -- Value=0xE0001000  returns 0x00 (0000ms, 0160ms total)
T365C 000:183 JLINK_GetDebugInfo(0x106) -- Value=0xE0002000  returns 0x00 (0000ms, 0160ms total)
T365C 000:183 JLINK_GetDebugInfo(0x107) -- Value=0xE000E000  returns 0x00 (0000ms, 0160ms total)
T365C 000:183 JLINK_GetDebugInfo(0x10C) -- Value=0xE000EDF0  returns 0x00 (0000ms, 0160ms total)
T365C 000:183 JLINK_ReadMemU32(0xE000EF40, 0x0001 Items, ...) -- CPU is running -- CPU_ReadMem(4 bytes @ 0xE000EF40) - Data: 21 00 11 10  returns 0x01 (0000ms, 0160ms total)
T365C 000:183 JLINK_ReadMemU32(0xE000EF44, 0x0001 Items, ...) -- CPU is running -- CPU_ReadMem(4 bytes @ 0xE000EF44) - Data: 11 00 00 11  returns 0x01 (0001ms, 0161ms total)
T365C 000:184 JLINK_ReadMemU32(0xE000ED00, 0x0001 Items, ...) -- CPU is running -- CPU_ReadMem(4 bytes @ 0xE000ED00) - Data: 41 C2 0F 41  returns 0x01 (0000ms, 0161ms total)
T365C 000:184 JLINK_SetResetType(JLINKARM_RESET_TYPE_NORMAL)  returns JLINKARM_RESET_TYPE_NORMAL (0000ms, 0161ms total)
T365C 000:184 JLINK_Reset() -- CPU is running -- CPU_WriteMem(4 bytes @ 0xE000EDF0) -- CPU is running -- CPU_WriteMem(4 bytes @ 0xE000EDFC) >0x35 TIF> -- CPU is running -- CPU_WriteMem(4 bytes @ 0xE000ED0C) -- CPU is running -- CPU_ReadMem(4 bytes @ 0xE000EDF0) -- CPU is running -- CPU_ReadMem(4 bytes @ 0xE000EDF0) -- CPU is running -- CPU_WriteMem(4 bytes @ 0xE000EDF0) -- CPU is running -- CPU_WriteMem(4 bytes @ 0xE000EDFC) -- CPU is running -- CPU_ReadMem(4 bytes @ 0xE000EDF0)
 -- CPU_WriteMem(4 bytes @ 0xE0002000) -- CPU_ReadMem(4 bytes @ 0xE000EDFC) -- CPU_ReadMem(4 bytes @ 0xE0001000) (0015ms, 0176ms total)
T365C 000:199 JLINK_ReadReg(R15 (PC))  returns 0x080001C0 (0000ms, 0176ms total)
T365C 000:199 JLINK_ReadReg(XPSR)  returns 0x01000000 (0000ms, 0176ms total)
T365C 000:199 JLINK_Halt()  returns 0x00 (0000ms, 0176ms total)
T365C 000:199 JLINK_IsHalted()  returns TRUE (0000ms, 0176ms total)
T365C 000:199 JLINK_ReadMemU32(0xE000EDF0, 0x0001 Items, ...) -- CPU_ReadMem(4 bytes @ 0xE000EDF0) - Data: 03 00 03 00  returns 0x01 (0000ms, 0176ms total)
T365C 000:199 JLINK_WriteU32(0xE000EDF0, 0xA05F0003) -- CPU_WriteMem(4 bytes @ 0xE000EDF0)  returns 0x00 (0000ms, 0176ms total)
T365C 000:199 JLINK_WriteU32(0xE000EDFC, 0x01000000) -- CPU_WriteMem(4 bytes @ 0xE000EDFC)  returns 0x00 (0001ms, 0177ms total)
T365C 000:200 JLINK_GetHWStatus(...)  returns 0x00 (0000ms, 0177ms total)
T365C 000:200 JLINK_GetNumBPUnits(Type = 0xFFFFFF00)  returns 0x06 (0000ms, 0177ms total)
T365C 000:200 JLINK_GetNumBPUnits(Type = 0xF0)  returns 0x2000 (0000ms, 0177ms total)
T365C 000:200 JLINK_GetNumWPUnits()  returns 0x04 (0000ms, 0177ms total)
T365C 000:200 JLINK_GetSpeed()  returns 0xFA0 (0000ms, 0177ms total)
T365C 000:200 JLINK_ReadMemU32(0xE000E004, 0x0001 Items, ...) -- CPU_ReadMem(4 bytes @ 0xE000E004) - Data: 02 00 00 00  returns 0x01 (0000ms, 0177ms total)
T365C 000:200 JLINK_ReadMemU32(0xE000E004, 0x0001 Items, ...) -- CPU_ReadMem(4 bytes @ 0xE000E004) - Data: 02 00 00 00  returns 0x01 (0000ms, 0177ms total)
T365C 000:200 JLINK_WriteMem(0xE0001000, 0x001C Bytes, ...) - Data: 01 00 00 00 00 00 00 00 00 00 00 00 00 00 00 00 ... -- CPU_WriteMem(28 bytes @ 0xE0001000)  returns 0x1C (0001ms, 0178ms total)
T365C 000:201 JLINK_ReadMem (0xE0001000, 0x001C Bytes, ...) -- CPU_ReadMem(28 bytes @ 0xE0001000) - Data: 01 00 00 40 00 00 00 00 00 00 00 00 00 00 00 00 ...  returns 0x00 (0001ms, 0179ms total)
T365C 000:202 JLINK_ReadReg(R15 (PC))  returns 0x080001C0 (0000ms, 0179ms total)
T365C 000:202 JLINK_ReadReg(XPSR)  returns 0x01000000 (0000ms, 0179ms total)
T365C 000:309 JLINK_SetResetType(JLINKARM_RESET_TYPE_NORMAL)  returns JLINKARM_RESET_TYPE_NORMAL (0000ms, 0179ms total)
T365C 000:309 JLINK_Reset() -- CPU_WriteMem(4 bytes @ 0xE000EDF0) -- CPU_WriteMem(4 bytes @ 0xE000EDFC) >0x35 TIF> -- CPU_WriteMem(4 bytes @ 0xE000ED0C) -- CPU_ReadMem(4 bytes @ 0xE000EDF0) -- CPU_ReadMem(4 bytes @ 0xE000EDF0) -- CPU_WriteMem(4 bytes @ 0xE000EDF0) -- CPU_WriteMem(4 bytes @ 0xE000EDFC) -- CPU is running -- CPU_ReadMem(4 bytes @ 0xE000EDF0) -- CPU_WriteMem(4 bytes @ 0xE0002000) -- CPU_ReadMem(4 bytes @ 0xE000EDFC) -- CPU_ReadMem(4 bytes @ 0xE0001000) (0015ms, 0194ms total)
T365C 000:324 JLINK_ReadReg(R15 (PC))  returns 0x080001C0 (0001ms, 0195ms total)
T365C 000:325 JLINK_ReadReg(XPSR)  returns 0x01000000 (0000ms, 0195ms total)
T365C 000:325 JLINK_ReadMem (0x080001C0, 0x003C Bytes, ...) -- CPU_ReadMem(64 bytes @ 0x080001C0) -- Updating C cache (64 bytes @ 0x080001C0) -- Read from C cache (60 bytes @ 0x080001C0) - Data: 06 48 80 47 06 48 00 47 FE E7 FE E7 FE E7 FE E7 ...  returns 0x00 (0001ms, 0196ms total)
T365C 000:456 JLINK_ReadMem (0x40020000, 0x0014 Bytes, ...) -- CPU_ReadMem(20 bytes @ 0x40020000) - Data: 00 00 00 A8 00 00 00 A8 00 00 00 A8 00 00 00 A8 ...  returns 0x00 (0000ms, 0196ms total)
T365C 000:456 JLINK_ReadMem (0x40020014, 0x0004 Bytes, ...) -- CPU_ReadMem(4 bytes @ 0x40020014) - Data: 00 00 00 A8  returns 0x00 (0001ms, 0197ms total)
T365C 000:457 JLINK_ReadMem (0x4002001C, 0x0008 Bytes, ...) -- CPU_ReadMem(8 bytes @ 0x4002001C) - Data: 00 00 00 A8 00 00 00 A8  returns 0x00 (0000ms, 0197ms total)
T365C 000:457 JLINK_ReadMem (0x40020024, 0x0004 Bytes, ...) -- CPU_ReadMem(4 bytes @ 0x40020024) - Data: 00 00 00 A8  returns 0x00 (0000ms, 0197ms total)
T365C 000:492 JLINK_ReadMem (0x40020800, 0x0014 Bytes, ...) -- CPU_ReadMem(20 bytes @ 0x40020800) - Data: 00 00 00 00 00 00 00 00 00 00 00 00 00 00 00 00 ...  returns 0x00 (0000ms, 0197ms total)
T365C 000:492 JLINK_ReadMem (0x40020814, 0x0004 Bytes, ...) -- CPU_ReadMem(4 bytes @ 0x40020814) - Data: 00 00 00 00  returns 0x00 (0000ms, 0197ms total)
T365C 000:492 JLINK_ReadMem (0x4002081C, 0x0008 Bytes, ...) -- CPU_ReadMem(8 bytes @ 0x4002081C) - Data: 00 00 00 00 00 00 00 00  returns 0x00 (0000ms, 0197ms total)
T365C 000:492 JLINK_ReadMem (0x40020824, 0x0004 Bytes, ...) -- CPU_ReadMem(4 bytes @ 0x40020824) - Data: 00 00 00 00  returns 0x00 (0001ms, 0198ms total)
T365C 000:522 JLINK_ReadMem (0x40004800, 0x0018 Bytes, ...) -- CPU_ReadMem(24 bytes @ 0x40004800) - Data: 00 00 00 00 00 00 00 00 00 00 00 00 00 00 00 00 ...  returns 0x00 (0000ms, 0198ms total)
T365C 000:523 JLINK_ReadMem (0x40004818, 0x0004 Bytes, ...) -- CPU_ReadMem(4 bytes @ 0x40004818) - Data: 00 00 00 00  returns 0x00 (0000ms, 0198ms total)
T365C 001:977 JLINK_ReadMem (0x20000090, 0x0002 Bytes, ...) -- CPU_ReadMem(64 bytes @ 0x20000080) -- Updating C cache (64 bytes @ 0x20000080) -- Read from C cache (2 bytes @ 0x20000090) - Data: 10 B5  returns 0x00 (0001ms, 0199ms total)
T1AB8 002:014 JLINK_SetBPEx(Addr = 0x0800414C, Type = 0xFFFFFFF2)  returns 0x00000001 (0001ms, 0200ms total)
T1AB8 002:015 JLINK_SetBPEx(Addr = 0x08002B28, Type = 0xFFFFFFF2)  returns 0x00000002 (0000ms, 0200ms total)
T1AB8 002:015 JLINK_Go() -- CPU_WriteMem(4 bytes @ 0xE0002000) -- CPU_WriteMem(4 bytes @ 0xE0002000) -- CPU_ReadMem(4 bytes @ 0xE0001000) -- CPU_WriteMem(4 bytes @ 0xE0002008) -- CPU_WriteMem(4 bytes @ 0xE000200C) -- CPU_WriteMem(4 bytes @ 0xE0002010) -- CPU_WriteMem(4 bytes @ 0xE0002014) -- CPU_WriteMem(4 bytes @ 0xE0002018) -- CPU_WriteMem(4 bytes @ 0xE000201C) -- CPU_WriteMem(4 bytes @ 0xE0001004) (0002ms, 0202ms total)
T1AB8 002:118 JLINK_IsHalted()  returns TRUE (0001ms, 0203ms total)
T1AB8 002:119 JLINK_Halt()  returns 0x00 (0000ms, 0202ms total)
T1AB8 002:119 JLINK_IsHalted()  returns TRUE (0000ms, 0202ms total)
T1AB8 002:119 JLINK_IsHalted()  returns TRUE (0000ms, 0202ms total)
T1AB8 002:119 JLINK_IsHalted()  returns TRUE (0001ms, 0203ms total)
T1AB8 002:120 JLINK_ReadReg(R15 (PC))  returns 0x0800414C (0000ms, 0202ms total)
T1AB8 002:120 JLINK_ReadReg(XPSR)  returns 0x61000000 (0000ms, 0202ms total)
T1AB8 002:120 JLINK_ClrBPEx(BPHandle = 0x00000001)  returns 0x00 (0000ms, 0202ms total)
T1AB8 002:120 JLINK_ClrBPEx(BPHandle = 0x00000002)  returns 0x00 (0000ms, 0202ms total)
T1AB8 002:120 JLINK_ReadMemU32(0xE000ED30, 0x0001 Items, ...) -- CPU_ReadMem(4 bytes @ 0xE000ED30) - Data: 02 00 00 00  returns 0x01 (0000ms, 0202ms total)
T1AB8 002:120 JLINK_ReadMemU32(0xE0001028, 0x0001 Items, ...) -- CPU_ReadMem(4 bytes @ 0xE0001028) - Data: 00 00 00 00  returns 0x01 (0000ms, 0202ms total)
T1AB8 002:120 JLINK_ReadMemU32(0xE0001038, 0x0001 Items, ...) -- CPU_ReadMem(4 bytes @ 0xE0001038) - Data: 00 02 00 00  returns 0x01 (0001ms, 0203ms total)
T1AB8 002:121 JLINK_ReadMemU32(0xE0001048, 0x0001 Items, ...) -- CPU_ReadMem(4 bytes @ 0xE0001048) - Data: 00 00 00 00  returns 0x01 (0000ms, 0203ms total)
T1AB8 002:121 JLINK_ReadMemU32(0xE0001058, 0x0001 Items, ...) -- CPU_ReadMem(4 bytes @ 0xE0001058) - Data: 00 00 00 00  returns 0x01 (0000ms, 0203ms total)
T1AB8 002:121 JLINK_ReadReg(R0)  returns 0x0800414D (0000ms, 0203ms total)
T1AB8 002:121 JLINK_ReadReg(R1)  returns 0x20004298 (0000ms, 0203ms total)
T1AB8 002:121 JLINK_ReadReg(R2)  returns 0x00000000 (0000ms, 0203ms total)
T1AB8 002:121 JLINK_ReadReg(R3)  returns 0x08003855 (0000ms, 0203ms total)
T1AB8 002:121 JLINK_ReadReg(R4)  returns 0x08004218 (0000ms, 0203ms total)
T1AB8 002:121 JLINK_ReadReg(R5)  returns 0x08004218 (0000ms, 0203ms total)
T1AB8 002:121 JLINK_ReadReg(R6)  returns 0x00000000 (0000ms, 0203ms total)
T1AB8 002:121 JLINK_ReadReg(R7)  returns 0x00000000 (0000ms, 0203ms total)
T1AB8 002:121 JLINK_ReadReg(R8)  returns 0x00000000 (0001ms, 0204ms total)
T1AB8 002:122 JLINK_ReadReg(R9)  returns 0x00000000 (0000ms, 0204ms total)
T1AB8 002:122 JLINK_ReadReg(R10)  returns 0x00000000 (0000ms, 0204ms total)
T1AB8 002:122 JLINK_ReadReg(R11)  returns 0x00000000 (0000ms, 0204ms total)
T1AB8 002:122 JLINK_ReadReg(R12)  returns 0x00000000 (0000ms, 0204ms total)
T1AB8 002:122 JLINK_ReadReg(R13 (SP))  returns 0x20004298 (0000ms, 0204ms total)
T1AB8 002:122 JLINK_ReadReg(R14)  returns 0x08000749 (0000ms, 0204ms total)
T1AB8 002:122 JLINK_ReadReg(R15 (PC))  returns 0x0800414C (0000ms, 0204ms total)
T1AB8 002:122 JLINK_ReadReg(XPSR)  returns 0x61000000 (0000ms, 0204ms total)
T1AB8 002:122 JLINK_ReadReg(MSP)  returns 0x20004298 (0000ms, 0204ms total)
T1AB8 002:122 JLINK_ReadReg(PSP)  returns 0x00000000 (0000ms, 0204ms total)
T1AB8 002:122 JLINK_ReadReg(CFBP)  returns 0x00000000 (0000ms, 0204ms total)
T1AB8 002:122 JLINK_ReadReg(FPSCR)  returns 0x00000000 (0003ms, 0207ms total)
T1AB8 002:125 JLINK_ReadReg(FPS0)  returns 0x00000000 (0000ms, 0207ms total)
T1AB8 002:125 JLINK_ReadReg(FPS1)  returns 0x00000000 (0000ms, 0207ms total)
T1AB8 002:125 JLINK_ReadReg(FPS2)  returns 0x00000000 (0000ms, 0207ms total)
T1AB8 002:125 JLINK_ReadReg(FPS3)  returns 0x00000000 (0000ms, 0207ms total)
T1AB8 002:125 JLINK_ReadReg(FPS4)  returns 0x00000000 (0000ms, 0207ms total)
T1AB8 002:125 JLINK_ReadReg(FPS5)  returns 0x00000000 (0000ms, 0207ms total)
T1AB8 002:125 JLINK_ReadReg(FPS6)  returns 0x00000000 (0000ms, 0207ms total)
T1AB8 002:125 JLINK_ReadReg(FPS7)  returns 0x00000000 (0000ms, 0207ms total)
T1AB8 002:125 JLINK_ReadReg(FPS8)  returns 0x00000000 (0000ms, 0207ms total)
T1AB8 002:125 JLINK_ReadReg(FPS9)  returns 0x00000000 (0000ms, 0207ms total)
T1AB8 002:125 JLINK_ReadReg(FPS10)  returns 0x00000000 (0000ms, 0207ms total)
T1AB8 002:125 JLINK_ReadReg(FPS11)  returns 0x00000000 (0000ms, 0207ms total)
T1AB8 002:125 JLINK_ReadReg(FPS12)  returns 0x00000000 (0000ms, 0207ms total)
T1AB8 002:125 JLINK_ReadReg(FPS13)  returns 0x00000000 (0000ms, 0207ms total)
T1AB8 002:125 JLINK_ReadReg(FPS14)  returns 0x00000000 (0000ms, 0207ms total)
T1AB8 002:125 JLINK_ReadReg(FPS15)  returns 0x00000000 (0000ms, 0207ms total)
T1AB8 002:125 JLINK_ReadReg(FPS16)  returns 0x00000000 (0000ms, 0207ms total)
T1AB8 002:125 JLINK_ReadReg(FPS17)  returns 0x00000000 (0000ms, 0207ms total)
T1AB8 002:125 JLINK_ReadReg(FPS18)  returns 0x00000000 (0000ms, 0207ms total)
T1AB8 002:125 JLINK_ReadReg(FPS19)  returns 0x00000000 (0000ms, 0207ms total)
T1AB8 002:125 JLINK_ReadReg(FPS20)  returns 0x00000000 (0000ms, 0207ms total)
T1AB8 002:125 JLINK_ReadReg(FPS21)  returns 0x00000000 (0000ms, 0207ms total)
T1AB8 002:125 JLINK_ReadReg(FPS22)  returns 0x00000000 (0000ms, 0207ms total)
T1AB8 002:125 JLINK_ReadReg(FPS23)  returns 0x00000000 (0000ms, 0207ms total)
T1AB8 002:125 JLINK_ReadReg(FPS24)  returns 0x00000000 (0000ms, 0207ms total)
T1AB8 002:125 JLINK_ReadReg(FPS25)  returns 0x00000000 (0000ms, 0207ms total)
T1AB8 002:125 JLINK_ReadReg(FPS26)  returns 0x00000000 (0000ms, 0207ms total)
T1AB8 002:125 JLINK_ReadReg(FPS27)  returns 0x00000000 (0000ms, 0207ms total)
T1AB8 002:125 JLINK_ReadReg(FPS28)  returns 0x00000000 (0000ms, 0207ms total)
T1AB8 002:125 JLINK_ReadReg(FPS29)  returns 0x00000000 (0000ms, 0207ms total)
T1AB8 002:125 JLINK_ReadReg(FPS30)  returns 0x00000000 (0000ms, 0207ms total)
T1AB8 002:125 JLINK_ReadReg(FPS31)  returns 0x00000000 (0000ms, 0207ms total)
T365C 002:154 JLINK_ReadMem (0x20000090, 0x0002 Bytes, ...) -- CPU_ReadMem(64 bytes @ 0x20000080) -- Updating C cache (64 bytes @ 0x20000080) -- Read from C cache (2 bytes @ 0x20000090) - Data: 00 00  returns 0x00 (0001ms, 0208ms total)
T365C 002:156 JLINK_ReadMem (0x40004800, 0x0018 Bytes, ...) -- CPU_ReadMem(24 bytes @ 0x40004800) - Data: 00 00 00 00 00 00 00 00 00 00 00 00 00 00 00 00 ...  returns 0x00 (0000ms, 0208ms total)
T365C 002:156 JLINK_ReadMem (0x40004818, 0x0004 Bytes, ...) -- CPU_ReadMem(4 bytes @ 0x40004818) - Data: 00 00 00 00  returns 0x00 (0000ms, 0208ms total)
T365C 002:157 JLINK_ReadMem (0x40020800, 0x0014 Bytes, ...) -- CPU_ReadMem(20 bytes @ 0x40020800) - Data: 00 00 00 00 00 00 00 00 00 00 00 00 00 00 00 00 ...  returns 0x00 (0000ms, 0208ms total)
T365C 002:157 JLINK_ReadMem (0x40020814, 0x0004 Bytes, ...) -- CPU_ReadMem(4 bytes @ 0x40020814) - Data: 00 00 00 00  returns 0x00 (0000ms, 0208ms total)
T365C 002:157 JLINK_ReadMem (0x4002081C, 0x0008 Bytes, ...) -- CPU_ReadMem(8 bytes @ 0x4002081C) - Data: 00 00 00 00 00 00 00 00  returns 0x00 (0001ms, 0209ms total)
T365C 002:158 JLINK_ReadMem (0x40020824, 0x0004 Bytes, ...) -- CPU_ReadMem(4 bytes @ 0x40020824) - Data: 00 00 00 00  returns 0x00 (0000ms, 0209ms total)
T365C 002:158 JLINK_ReadMem (0x40020000, 0x0014 Bytes, ...) -- CPU_ReadMem(20 bytes @ 0x40020000) - Data: 00 00 00 A8 00 00 00 A8 00 00 00 A8 00 00 00 A8 ...  returns 0x00 (0000ms, 0209ms total)
T365C 002:158 JLINK_ReadMem (0x40020014, 0x0004 Bytes, ...) -- CPU_ReadMem(4 bytes @ 0x40020014) - Data: 00 00 00 A8  returns 0x00 (0001ms, 0210ms total)
T365C 002:159 JLINK_ReadMem (0x4002001C, 0x0008 Bytes, ...) -- CPU_ReadMem(8 bytes @ 0x4002001C) - Data: 00 00 00 A8 00 00 00 A8  returns 0x00 (0000ms, 0210ms total)
T365C 002:159 JLINK_ReadMem (0x40020024, 0x0004 Bytes, ...) -- CPU_ReadMem(4 bytes @ 0x40020024) - Data: 00 00 00 A8  returns 0x00 (0000ms, 0210ms total)
T1AB8 003:515 JLINK_SetBPEx(Addr = 0x08002B28, Type = 0xFFFFFFF2)  returns 0x00000003 (0001ms, 0211ms total)
T1AB8 003:516 JLINK_Go() -- CPU_WriteMem(4 bytes @ 0xE0002000) -- CPU_ReadMem(4 bytes @ 0xE0001000) -- CPU_WriteMem(4 bytes @ 0xE0002008) -- CPU_WriteMem(4 bytes @ 0xE000200C) (0001ms, 0212ms total)
T1AB8 003:618 JLINK_IsHalted()  returns FALSE (0000ms, 0212ms total)
T1AB8 003:719 JLINK_IsHalted()  returns FALSE (0000ms, 0212ms total)
T1AB8 003:820 JLINK_IsHalted()  returns FALSE (0000ms, 0212ms total)
T1AB8 003:922 JLINK_IsHalted()  returns FALSE (0000ms, 0212ms total)
T1AB8 004:023 JLINK_ReadMemU32(0xE0001004, 0x0001 Items, ...) -- CPU is running -- CPU_ReadMem(4 bytes @ 0xE0001004) - Data: FA 3F 6D 05  returns 0x01 (0000ms, 0212ms total)
T365C 004:023 JLINK_ReadMem (0x20000090, 0x0002 Bytes, ...) -- CPU is running -- CPU_ReadMem(2 bytes @ 0x20000090) - Data: 00 00  returns 0x00 (0000ms, 0212ms total)
T365C 004:024 JLINK_ReadMem (0x40004800, 0x0018 Bytes, ...) -- CPU is running -- CPU_ReadMem(24 bytes @ 0x40004800) - Data: C0 00 00 00 00 00 00 00 87 01 00 00 0C 20 00 00 ...  returns 0x00 (0001ms, 0213ms total)
T365C 004:025 JLINK_ReadMem (0x40004818, 0x0004 Bytes, ...) -- CPU is running -- CPU_ReadMem(4 bytes @ 0x40004818) - Data: 00 00 00 00  returns 0x00 (0000ms, 0213ms total)
T365C 004:025 JLINK_ReadMem (0x40020800, 0x0014 Bytes, ...) -- CPU is running -- CPU_ReadMem(20 bytes @ 0x40020800) - Data: 00 05 00 00 00 00 00 00 00 00 00 00 00 00 00 00 ...  returns 0x00 (0001ms, 0214ms total)
T365C 004:026 JLINK_ReadMem (0x40020814, 0x0004 Bytes, ...) -- CPU is running -- CPU_ReadMem(4 bytes @ 0x40020814) - Data: 10 00 00 00  returns 0x00 (0000ms, 0214ms total)
T365C 004:026 JLINK_ReadMem (0x4002081C, 0x0008 Bytes, ...) -- CPU is running -- CPU_ReadMem(8 bytes @ 0x4002081C) - Data: 00 00 00 00 00 00 00 00  returns 0x00 (0000ms, 0214ms total)
T365C 004:026 JLINK_ReadMem (0x40020824, 0x0004 Bytes, ...) -- CPU is running -- CPU_ReadMem(4 bytes @ 0x40020824) - Data: 00 00 00 00  returns 0x00 (0000ms, 0214ms total)
T365C 004:027 JLINK_ReadMem (0x40020000, 0x0014 Bytes, ...) -- CPU is running -- CPU_ReadMem(20 bytes @ 0x40020000) - Data: 00 A9 28 A8 00 00 00 00 00 FF 3C 0C 00 00 14 64 ...  returns 0x00 (0000ms, 0214ms total)
T365C 004:027 JLINK_ReadMem (0x40020014, 0x0004 Bytes, ...) -- CPU is running -- CPU_ReadMem(4 bytes @ 0x40020014) - Data: 10 00 00 00  returns 0x00 (0001ms, 0215ms total)
T365C 004:028 JLINK_ReadMem (0x4002001C, 0x0008 Bytes, ...) -- CPU is running -- CPU_ReadMem(8 bytes @ 0x4002001C) - Data: 00 00 00 00 00 00 50 55  returns 0x00 (0000ms, 0215ms total)
T365C 004:028 JLINK_ReadMem (0x40020024, 0x0004 Bytes, ...) -- CPU is running -- CPU_ReadMem(4 bytes @ 0x40020024) - Data: 70 07 00 00  returns 0x00 (0000ms, 0215ms total)
T1AB8 004:048 JLINK_IsHalted()  returns FALSE (0001ms, 0216ms total)
T1AB8 004:150 JLINK_IsHalted()  returns FALSE (0000ms, 0215ms total)
T1AB8 004:252 JLINK_IsHalted()  returns FALSE (0000ms, 0215ms total)
T1AB8 004:353 JLINK_IsHalted()  returns FALSE (0000ms, 0215ms total)
T1AB8 004:454 JLINK_IsHalted()  returns FALSE (0000ms, 0215ms total)
T1AB8 004:555 JLINK_ReadMemU32(0xE0001004, 0x0001 Items, ...) -- CPU is running - Data: FA 3F 6D 05  returns 0x01 (0000ms, 0215ms total)
T365C 004:555 JLINK_ReadMem (0x20000090, 0x0002 Bytes, ...) -- CPU is running -- CPU_ReadMem(2 bytes @ 0x20000090) - Data: 00 00  returns 0x00 (0000ms, 0215ms total)
T365C 004:556 JLINK_ReadMem (0x40004800, 0x0018 Bytes, ...) -- CPU is running -- CPU_ReadMem(24 bytes @ 0x40004800) - Data: C0 00 00 00 00 00 00 00 87 01 00 00 0C 20 00 00 ...  returns 0x00 (0000ms, 0215ms total)
T365C 004:556 JLINK_ReadMem (0x40004818, 0x0004 Bytes, ...) -- CPU is running -- CPU_ReadMem(4 bytes @ 0x40004818) - Data: 00 00 00 00  returns 0x00 (0000ms, 0215ms total)
T365C 004:557 JLINK_ReadMem (0x40020800, 0x0014 Bytes, ...) -- CPU is running -- CPU_ReadMem(20 bytes @ 0x40020800) - Data: 00 05 00 00 00 00 00 00 00 00 00 00 00 00 00 00 ...  returns 0x00 (0000ms, 0215ms total)
T365C 004:557 JLINK_ReadMem (0x40020814, 0x0004 Bytes, ...) -- CPU is running -- CPU_ReadMem(4 bytes @ 0x40020814) - Data: 00 00 00 00  returns 0x00 (0000ms, 0215ms total)
T365C 004:557 JLINK_ReadMem (0x4002081C, 0x0008 Bytes, ...) -- CPU is running -- CPU_ReadMem(8 bytes @ 0x4002081C) - Data: 00 00 00 00 00 00 00 00  returns 0x00 (0000ms, 0215ms total)
T365C 004:557 JLINK_ReadMem (0x40020824, 0x0004 Bytes, ...) -- CPU is running -- CPU_ReadMem(4 bytes @ 0x40020824) - Data: 00 00 00 00  returns 0x00 (0001ms, 0216ms total)
T365C 004:558 JLINK_ReadMem (0x40020000, 0x0014 Bytes, ...) -- CPU is running -- CPU_ReadMem(20 bytes @ 0x40020000) - Data: 00 A9 28 A8 00 00 00 00 00 FF 3C 0C 00 00 14 64 ...  returns 0x00 (0001ms, 0217ms total)
T365C 004:559 JLINK_ReadMem (0x40020014, 0x0004 Bytes, ...) -- CPU is running -- CPU_ReadMem(4 bytes @ 0x40020014) - Data: 10 00 00 00  returns 0x00 (0000ms, 0217ms total)
T365C 004:559 JLINK_ReadMem (0x4002001C, 0x0008 Bytes, ...) -- CPU is running -- CPU_ReadMem(8 bytes @ 0x4002001C) - Data: 00 00 00 00 00 00 50 55  returns 0x00 (0000ms, 0217ms total)
T365C 004:559 JLINK_ReadMem (0x40020024, 0x0004 Bytes, ...) -- CPU is running -- CPU_ReadMem(4 bytes @ 0x40020024) - Data: 70 07 00 00  returns 0x00 (0001ms, 0218ms total)
T1AB8 004:560 JLINK_IsHalted()  returns FALSE (0000ms, 0218ms total)
T1AB8 004:662 JLINK_IsHalted()  returns FALSE (0000ms, 0218ms total)
T1AB8 004:763 JLINK_IsHalted()  returns FALSE (0000ms, 0218ms total)
T1AB8 004:864 JLINK_IsHalted()  returns FALSE (0000ms, 0218ms total)
T1AB8 004:965 JLINK_IsHalted()  returns FALSE (0000ms, 0218ms total)
T1AB8 005:067 JLINK_ReadMemU32(0xE0001004, 0x0001 Items, ...) -- CPU is running - Data: FA 3F 6D 05  returns 0x01 (0000ms, 0218ms total)
T365C 005:067 JLINK_ReadMem (0x20000090, 0x0002 Bytes, ...) -- CPU is running -- CPU_ReadMem(2 bytes @ 0x20000090) - Data: 00 00  returns 0x00 (0000ms, 0218ms total)
T365C 005:068 JLINK_ReadMem (0x40004800, 0x0018 Bytes, ...) -- CPU is running -- CPU_ReadMem(24 bytes @ 0x40004800) - Data: C0 00 00 00 00 00 00 00 87 01 00 00 0C 20 00 00 ...  returns 0x00 (0000ms, 0218ms total)
T365C 005:068 JLINK_ReadMem (0x40004818, 0x0004 Bytes, ...) -- CPU is running -- CPU_ReadMem(4 bytes @ 0x40004818) - Data: 00 00 00 00  returns 0x00 (0001ms, 0219ms total)
T365C 005:069 JLINK_ReadMem (0x40020800, 0x0014 Bytes, ...) -- CPU is running -- CPU_ReadMem(20 bytes @ 0x40020800) - Data: 00 05 00 00 00 00 00 00 00 00 00 00 00 00 00 00 ...  returns 0x00 (0000ms, 0219ms total)
T365C 005:069 JLINK_ReadMem (0x40020814, 0x0004 Bytes, ...) -- CPU is running -- CPU_ReadMem(4 bytes @ 0x40020814) - Data: 00 00 00 00  returns 0x00 (0000ms, 0219ms total)
T365C 005:069 JLINK_ReadMem (0x4002081C, 0x0008 Bytes, ...) -- CPU is running -- CPU_ReadMem(8 bytes @ 0x4002081C) - Data: 00 00 00 00 00 00 00 00  returns 0x00 (0001ms, 0220ms total)
T365C 005:070 JLINK_ReadMem (0x40020824, 0x0004 Bytes, ...) -- CPU is running -- CPU_ReadMem(4 bytes @ 0x40020824) - Data: 00 00 00 00  returns 0x00 (0000ms, 0220ms total)
T365C 005:071 JLINK_ReadMem (0x40020000, 0x0014 Bytes, ...) -- CPU is running -- CPU_ReadMem(20 bytes @ 0x40020000) - Data: 00 A9 28 A8 00 00 00 00 00 FF 3C 0C 00 00 14 64 ...  returns 0x00 (0000ms, 0220ms total)
T365C 005:071 JLINK_ReadMem (0x40020014, 0x0004 Bytes, ...) -- CPU is running -- CPU_ReadMem(4 bytes @ 0x40020014) - Data: 10 00 00 00  returns 0x00 (0000ms, 0220ms total)
T365C 005:071 JLINK_ReadMem (0x4002001C, 0x0008 Bytes, ...) -- CPU is running -- CPU_ReadMem(8 bytes @ 0x4002001C) - Data: 00 00 00 00 00 00 50 55  returns 0x00 (0001ms, 0221ms total)
T365C 005:072 JLINK_ReadMem (0x40020024, 0x0004 Bytes, ...) -- CPU is running -- CPU_ReadMem(4 bytes @ 0x40020024) - Data: 70 07 00 00  returns 0x00 (0000ms, 0221ms total)
T1AB8 005:074 JLINK_IsHalted()  returns FALSE (0001ms, 0222ms total)
T1AB8 005:175 JLINK_IsHalted()  returns FALSE (0000ms, 0221ms total)
T1AB8 005:276 JLINK_IsHalted()  returns FALSE (0000ms, 0221ms total)
T1AB8 005:377 JLINK_IsHalted()  returns FALSE (0000ms, 0221ms total)
T1AB8 005:479 JLINK_IsHalted()  returns FALSE (0000ms, 0221ms total)
T1AB8 005:580 JLINK_IsHalted()  returns FALSE (0000ms, 0221ms total)
T1AB8 005:681 JLINK_ReadMemU32(0xE0001004, 0x0001 Items, ...) -- CPU is running - Data: FA 3F 6D 05  returns 0x01 (0000ms, 0221ms total)
T365C 005:681 JLINK_ReadMem (0x20000090, 0x0002 Bytes, ...) -- CPU is running -- CPU_ReadMem(2 bytes @ 0x20000090) - Data: 00 00  returns 0x00 (0000ms, 0221ms total)
T365C 005:682 JLINK_ReadMem (0x40004800, 0x0018 Bytes, ...) -- CPU is running -- CPU_ReadMem(24 bytes @ 0x40004800) - Data: C0 00 00 00 00 00 00 00 87 01 00 00 0C 20 00 00 ...  returns 0x00 (0000ms, 0221ms total)
T365C 005:682 JLINK_ReadMem (0x40004818, 0x0004 Bytes, ...) -- CPU is running -- CPU_ReadMem(4 bytes @ 0x40004818) - Data: 00 00 00 00  returns 0x00 (0001ms, 0222ms total)
T365C 005:683 JLINK_ReadMem (0x40020800, 0x0014 Bytes, ...) -- CPU is running -- CPU_ReadMem(20 bytes @ 0x40020800) - Data: 00 05 00 00 00 00 00 00 00 00 00 00 00 00 00 00 ...  returns 0x00 (0000ms, 0222ms total)
T365C 005:683 JLINK_ReadMem (0x40020814, 0x0004 Bytes, ...) -- CPU is running -- CPU_ReadMem(4 bytes @ 0x40020814) - Data: 10 00 00 00  returns 0x00 (0000ms, 0222ms total)
T365C 005:683 JLINK_ReadMem (0x4002081C, 0x0008 Bytes, ...) -- CPU is running -- CPU_ReadMem(8 bytes @ 0x4002081C) - Data: 00 00 00 00 00 00 00 00  returns 0x00 (0001ms, 0223ms total)
T365C 005:684 JLINK_ReadMem (0x40020824, 0x0004 Bytes, ...) -- CPU is running -- CPU_ReadMem(4 bytes @ 0x40020824) - Data: 00 00 00 00  returns 0x00 (0000ms, 0223ms total)
T365C 005:684 JLINK_ReadMem (0x40020000, 0x0014 Bytes, ...) -- CPU is running -- CPU_ReadMem(20 bytes @ 0x40020000) - Data: 00 A9 28 A8 00 00 00 00 00 FF 3C 0C 00 00 14 64 ...  returns 0x00 (0001ms, 0224ms total)
T365C 005:685 JLINK_ReadMem (0x40020014, 0x0004 Bytes, ...) -- CPU is running -- CPU_ReadMem(4 bytes @ 0x40020014) - Data: 10 00 00 00  returns 0x00 (0000ms, 0224ms total)
T365C 005:685 JLINK_ReadMem (0x4002001C, 0x0008 Bytes, ...) -- CPU is running -- CPU_ReadMem(8 bytes @ 0x4002001C) - Data: 00 00 00 00 00 00 50 55  returns 0x00 (0000ms, 0224ms total)
T365C 005:685 JLINK_ReadMem (0x40020024, 0x0004 Bytes, ...) -- CPU is running -- CPU_ReadMem(4 bytes @ 0x40020024) - Data: 70 07 00 00  returns 0x00 (0001ms, 0225ms total)
T1AB8 005:689 JLINK_IsHalted()  returns FALSE (0000ms, 0225ms total)
T1AB8 005:791 JLINK_IsHalted()  returns FALSE (0000ms, 0225ms total)
T1AB8 005:892 JLINK_IsHalted()  returns FALSE (0000ms, 0225ms total)
T1AB8 005:993 JLINK_IsHalted()  returns FALSE (0000ms, 0225ms total)
T1AB8 006:094 JLINK_IsHalted()  returns FALSE (0000ms, 0225ms total)
T1AB8 006:196 JLINK_ReadMemU32(0xE0001004, 0x0001 Items, ...) -- CPU is running - Data: FA 3F 6D 05  returns 0x01 (0000ms, 0225ms total)
T365C 006:196 JLINK_ReadMem (0x20000090, 0x0002 Bytes, ...) -- CPU is running -- CPU_ReadMem(2 bytes @ 0x20000090) - Data: 00 00  returns 0x00 (0000ms, 0225ms total)
T365C 006:197 JLINK_ReadMem (0x40004800, 0x0018 Bytes, ...) -- CPU is running -- CPU_ReadMem(24 bytes @ 0x40004800) - Data: C0 00 00 00 00 00 00 00 87 01 00 00 0C 20 00 00 ...  returns 0x00 (0000ms, 0225ms total)
T365C 006:197 JLINK_ReadMem (0x40004818, 0x0004 Bytes, ...) -- CPU is running -- CPU_ReadMem(4 bytes @ 0x40004818) - Data: 00 00 00 00  returns 0x00 (0001ms, 0226ms total)
T365C 006:198 JLINK_ReadMem (0x40020800, 0x0014 Bytes, ...) -- CPU is running -- CPU_ReadMem(20 bytes @ 0x40020800) - Data: 00 05 00 00 00 00 00 00 00 00 00 00 00 00 00 00 ...  returns 0x00 (0000ms, 0226ms total)
T365C 006:198 JLINK_ReadMem (0x40020814, 0x0004 Bytes, ...) -- CPU is running -- CPU_ReadMem(4 bytes @ 0x40020814) - Data: 10 00 00 00  returns 0x00 (0000ms, 0226ms total)
T365C 006:198 JLINK_ReadMem (0x4002081C, 0x0008 Bytes, ...) -- CPU is running -- CPU_ReadMem(8 bytes @ 0x4002081C) - Data: 00 00 00 00 00 00 00 00  returns 0x00 (0001ms, 0227ms total)
T365C 006:199 JLINK_ReadMem (0x40020824, 0x0004 Bytes, ...) -- CPU is running -- CPU_ReadMem(4 bytes @ 0x40020824) - Data: 00 00 00 00  returns 0x00 (0000ms, 0227ms total)
T365C 006:200 JLINK_ReadMem (0x40020000, 0x0014 Bytes, ...) -- CPU is running -- CPU_ReadMem(20 bytes @ 0x40020000) - Data: 00 A9 28 A8 00 00 00 00 00 FF 3C 0C 00 00 14 64 ...  returns 0x00 (0000ms, 0227ms total)
T365C 006:200 JLINK_ReadMem (0x40020014, 0x0004 Bytes, ...) -- CPU is running -- CPU_ReadMem(4 bytes @ 0x40020014) - Data: 10 00 00 00  returns 0x00 (0000ms, 0227ms total)
T365C 006:200 JLINK_ReadMem (0x4002001C, 0x0008 Bytes, ...) -- CPU is running -- CPU_ReadMem(8 bytes @ 0x4002001C) - Data: 00 00 00 00 00 00 50 55  returns 0x00 (0001ms, 0228ms total)
T365C 006:201 JLINK_ReadMem (0x40020024, 0x0004 Bytes, ...) -- CPU is running -- CPU_ReadMem(4 bytes @ 0x40020024) - Data: 70 07 00 00  returns 0x00 (0000ms, 0228ms total)
T1AB8 006:201 JLINK_IsHalted()  returns FALSE (0001ms, 0229ms total)
T1AB8 006:302 JLINK_IsHalted()  returns FALSE (0000ms, 0228ms total)
T1AB8 006:403 JLINK_IsHalted()  returns FALSE (0000ms, 0228ms total)
T1AB8 006:504 JLINK_IsHalted()  returns FALSE (0000ms, 0228ms total)
T1AB8 006:606 JLINK_IsHalted()  returns TRUE (0001ms, 0229ms total)
T1AB8 006:607 JLINK_Halt()  returns 0x00 (0001ms, 0229ms total)
T1AB8 006:608 JLINK_IsHalted()  returns TRUE (0000ms, 0229ms total)
T1AB8 006:608 JLINK_IsHalted()  returns TRUE (0000ms, 0229ms total)
T1AB8 006:608 JLINK_IsHalted()  returns TRUE (0000ms, 0229ms total)
T1AB8 006:608 JLINK_ReadReg(R15 (PC))  returns 0x08002B28 (0000ms, 0229ms total)
T1AB8 006:608 JLINK_ReadReg(XPSR)  returns 0x21000000 (0000ms, 0229ms total)
T1AB8 006:608 JLINK_ClrBPEx(BPHandle = 0x00000003)  returns 0x00 (0000ms, 0229ms total)
T1AB8 006:608 JLINK_ReadMemU32(0xE000ED30, 0x0001 Items, ...) -- CPU_ReadMem(4 bytes @ 0xE000ED30) - Data: 02 00 00 00  returns 0x01 (0000ms, 0229ms total)
T1AB8 006:608 JLINK_ReadMemU32(0xE0001028, 0x0001 Items, ...) -- CPU_ReadMem(4 bytes @ 0xE0001028) - Data: 00 00 00 00  returns 0x01 (0000ms, 0229ms total)
T1AB8 006:608 JLINK_ReadMemU32(0xE0001038, 0x0001 Items, ...) -- CPU_ReadMem(4 bytes @ 0xE0001038) - Data: 00 02 00 00  returns 0x01 (0001ms, 0230ms total)
T1AB8 006:609 JLINK_ReadMemU32(0xE0001048, 0x0001 Items, ...) -- CPU_ReadMem(4 bytes @ 0xE0001048) - Data: 00 00 00 00  returns 0x01 (0000ms, 0230ms total)
T1AB8 006:609 JLINK_ReadMemU32(0xE0001058, 0x0001 Items, ...) -- CPU_ReadMem(4 bytes @ 0xE0001058) - Data: 00 00 00 00  returns 0x01 (0000ms, 0230ms total)
T1AB8 006:609 JLINK_ReadReg(R0)  returns 0x00000001 (0000ms, 0230ms total)
T1AB8 006:609 JLINK_ReadReg(R1)  returns 0x00000010 (0000ms, 0230ms total)
T1AB8 006:609 JLINK_ReadReg(R2)  returns 0x00000001 (0000ms, 0230ms total)
T1AB8 006:610 JLINK_ReadReg(R3)  returns 0xFFFFFFFF (0000ms, 0230ms total)
T1AB8 006:610 JLINK_ReadReg(R4)  returns 0x08004218 (0000ms, 0230ms total)
T1AB8 006:610 JLINK_ReadReg(R5)  returns 0x08004218 (0000ms, 0230ms total)
T1AB8 006:610 JLINK_ReadReg(R6)  returns 0x00000000 (0000ms, 0230ms total)
T1AB8 006:610 JLINK_ReadReg(R7)  returns 0x00000000 (0000ms, 0230ms total)
T1AB8 006:610 JLINK_ReadReg(R8)  returns 0x00000000 (0000ms, 0230ms total)
T1AB8 006:610 JLINK_ReadReg(R9)  returns 0x00000000 (0000ms, 0230ms total)
T1AB8 006:610 JLINK_ReadReg(R10)  returns 0x00000000 (0000ms, 0230ms total)
T1AB8 006:610 JLINK_ReadReg(R11)  returns 0x00000000 (0000ms, 0230ms total)
T1AB8 006:610 JLINK_ReadReg(R12)  returns 0x00000000 (0000ms, 0230ms total)
T1AB8 006:610 JLINK_ReadReg(R13 (SP))  returns 0x20004290 (0000ms, 0230ms total)
T1AB8 006:610 JLINK_ReadReg(R14)  returns 0x08000BCF (0000ms, 0230ms total)
T1AB8 006:610 JLINK_ReadReg(R15 (PC))  returns 0x08002B28 (0000ms, 0230ms total)
T1AB8 006:610 JLINK_ReadReg(XPSR)  returns 0x21000000 (0000ms, 0230ms total)
T1AB8 006:610 JLINK_ReadReg(MSP)  returns 0x20004290 (0000ms, 0230ms total)
T1AB8 006:610 JLINK_ReadReg(PSP)  returns 0x00000000 (0000ms, 0230ms total)
T1AB8 006:610 JLINK_ReadReg(CFBP)  returns 0x00000000 (0000ms, 0230ms total)
T1AB8 006:610 JLINK_ReadReg(FPSCR)  returns 0x00000000 (0003ms, 0233ms total)
T1AB8 006:613 JLINK_ReadReg(FPS0)  returns 0x00000000 (0000ms, 0233ms total)
T1AB8 006:613 JLINK_ReadReg(FPS1)  returns 0x00000000 (0000ms, 0233ms total)
T1AB8 006:613 JLINK_ReadReg(FPS2)  returns 0x00000000 (0000ms, 0233ms total)
T1AB8 006:613 JLINK_ReadReg(FPS3)  returns 0x00000000 (0000ms, 0233ms total)
T1AB8 006:613 JLINK_ReadReg(FPS4)  returns 0x00000000 (0000ms, 0233ms total)
T1AB8 006:613 JLINK_ReadReg(FPS5)  returns 0x00000000 (0000ms, 0233ms total)
T1AB8 006:613 JLINK_ReadReg(FPS6)  returns 0x00000000 (0000ms, 0233ms total)
T1AB8 006:613 JLINK_ReadReg(FPS7)  returns 0x00000000 (0000ms, 0233ms total)
T1AB8 006:613 JLINK_ReadReg(FPS8)  returns 0x00000000 (0000ms, 0233ms total)
T1AB8 006:613 JLINK_ReadReg(FPS9)  returns 0x00000000 (0000ms, 0233ms total)
T1AB8 006:613 JLINK_ReadReg(FPS10)  returns 0x00000000 (0000ms, 0233ms total)
T1AB8 006:613 JLINK_ReadReg(FPS11)  returns 0x00000000 (0000ms, 0233ms total)
T1AB8 006:613 JLINK_ReadReg(FPS12)  returns 0x00000000 (0000ms, 0233ms total)
T1AB8 006:613 JLINK_ReadReg(FPS13)  returns 0x00000000 (0000ms, 0233ms total)
T1AB8 006:613 JLINK_ReadReg(FPS14)  returns 0x00000000 (0000ms, 0233ms total)
T1AB8 006:613 JLINK_ReadReg(FPS15)  returns 0x00000000 (0000ms, 0233ms total)
T1AB8 006:613 JLINK_ReadReg(FPS16)  returns 0x00000000 (0000ms, 0233ms total)
T1AB8 006:613 JLINK_ReadReg(FPS17)  returns 0x00000000 (0000ms, 0233ms total)
T1AB8 006:613 JLINK_ReadReg(FPS18)  returns 0x00000000 (0000ms, 0233ms total)
T1AB8 006:613 JLINK_ReadReg(FPS19)  returns 0x00000000 (0000ms, 0233ms total)
T1AB8 006:613 JLINK_ReadReg(FPS20)  returns 0x00000000 (0000ms, 0233ms total)
T1AB8 006:613 JLINK_ReadReg(FPS21)  returns 0x00000000 (0000ms, 0233ms total)
T1AB8 006:613 JLINK_ReadReg(FPS22)  returns 0x00000000 (0000ms, 0233ms total)
T1AB8 006:613 JLINK_ReadReg(FPS23)  returns 0x00000000 (0000ms, 0233ms total)
T1AB8 006:613 JLINK_ReadReg(FPS24)  returns 0x00000000 (0000ms, 0233ms total)
T1AB8 006:613 JLINK_ReadReg(FPS25)  returns 0x00000000 (0000ms, 0233ms total)
T1AB8 006:613 JLINK_ReadReg(FPS26)  returns 0x00000000 (0000ms, 0233ms total)
T1AB8 006:613 JLINK_ReadReg(FPS27)  returns 0x00000000 (0000ms, 0233ms total)
T1AB8 006:613 JLINK_ReadReg(FPS28)  returns 0x00000000 (0000ms, 0233ms total)
T1AB8 006:613 JLINK_ReadReg(FPS29)  returns 0x00000000 (0000ms, 0233ms total)
T1AB8 006:613 JLINK_ReadReg(FPS30)  returns 0x00000000 (0000ms, 0233ms total)
T1AB8 006:613 JLINK_ReadReg(FPS31)  returns 0x00000000 (0000ms, 0233ms total)
T365C 006:614 JLINK_ReadMem (0x20004294, 0x0004 Bytes, ...) -- CPU_ReadMem(64 bytes @ 0x20004280) -- Updating C cache (64 bytes @ 0x20004280) -- Read from C cache (4 bytes @ 0x20004294) - Data: E1 2E 00 08  returns 0x00 (0000ms, 0233ms total)
T365C 006:615 JLINK_ReadMem (0x20004290, 0x0004 Bytes, ...) -- Read from C cache (4 bytes @ 0x20004290) - Data: 18 42 00 08  returns 0x00 (0000ms, 0233ms total)
T365C 006:616 JLINK_ReadMem (0x20000090, 0x0002 Bytes, ...) -- CPU_ReadMem(64 bytes @ 0x20000080) -- Updating C cache (64 bytes @ 0x20000080) -- Read from C cache (2 bytes @ 0x20000090) - Data: 00 00  returns 0x00 (0000ms, 0233ms total)
T365C 006:617 JLINK_ReadMem (0x40004800, 0x0018 Bytes, ...) -- CPU_ReadMem(24 bytes @ 0x40004800) - Data: C0 00 00 00 00 00 00 00 87 01 00 00 0C 20 00 00 ...  returns 0x00 (0000ms, 0233ms total)
T365C 006:617 JLINK_ReadMem (0x40004818, 0x0004 Bytes, ...) -- CPU_ReadMem(4 bytes @ 0x40004818) - Data: 00 00 00 00  returns 0x00 (0001ms, 0234ms total)
T365C 006:618 JLINK_ReadMem (0x40020800, 0x0014 Bytes, ...) -- CPU_ReadMem(20 bytes @ 0x40020800) - Data: 00 05 00 00 00 00 00 00 00 00 00 00 00 00 00 00 ...  returns 0x00 (0000ms, 0234ms total)
T365C 006:618 JLINK_ReadMem (0x40020814, 0x0004 Bytes, ...) -- CPU_ReadMem(4 bytes @ 0x40020814) - Data: 10 00 00 00  returns 0x00 (0001ms, 0235ms total)
T365C 006:619 JLINK_ReadMem (0x4002081C, 0x0008 Bytes, ...) -- CPU_ReadMem(8 bytes @ 0x4002081C) - Data: 00 00 00 00 00 00 00 00  returns 0x00 (0000ms, 0235ms total)
T365C 006:619 JLINK_ReadMem (0x40020824, 0x0004 Bytes, ...) -- CPU_ReadMem(4 bytes @ 0x40020824) - Data: 00 00 00 00  returns 0x00 (0000ms, 0235ms total)
T365C 006:620 JLINK_ReadMem (0x40020000, 0x0014 Bytes, ...) -- CPU_ReadMem(20 bytes @ 0x40020000) - Data: 00 A9 28 A8 00 00 00 00 00 FF 3C 0C 00 00 14 64 ...  returns 0x00 (0001ms, 0237ms total)
T365C 006:621 JLINK_ReadMem (0x40020014, 0x0004 Bytes, ...) -- CPU_ReadMem(4 bytes @ 0x40020014) - Data: 10 00 00 00  returns 0x00 (0000ms, 0237ms total)
T365C 006:621 JLINK_ReadMem (0x4002001C, 0x0008 Bytes, ...) -- CPU_ReadMem(8 bytes @ 0x4002001C) - Data: 00 00 00 00 00 00 50 55  returns 0x00 (0000ms, 0237ms total)
T365C 006:621 JLINK_ReadMem (0x40020024, 0x0004 Bytes, ...) -- CPU_ReadMem(4 bytes @ 0x40020024) - Data: 70 07 00 00  returns 0x00 (0001ms, 0238ms total)
T365C 006:624 JLINK_ReadMem (0x08002B28, 0x003C Bytes, ...) -- CPU_ReadMem(128 bytes @ 0x08002B00) -- Updating C cache (128 bytes @ 0x08002B00) -- Read from C cache (60 bytes @ 0x08002B28) - Data: 07 48 40 8F 44 F2 56 01 88 42 02 D1 01 20 00 F0 ...  returns 0x00 (0001ms, 0239ms total)
T365C 014:239 JLINK_ReadMem (0x200002E8, 0x0004 Bytes, ...) -- CPU_ReadMem(64 bytes @ 0x200002C0) -- Updating C cache (64 bytes @ 0x200002C0) -- Read from C cache (4 bytes @ 0x200002E8) - Data: 00 00 00 00  returns 0x00 (0001ms, 0240ms total)
T365C 014:240 JLINK_ReadMem (0x200002EC, 0x0004 Bytes, ...) -- Read from C cache (4 bytes @ 0x200002EC) - Data: 00 00 00 00  returns 0x00 (0000ms, 0240ms total)
T365C 014:240 JLINK_ReadMem (0x200002F0, 0x0004 Bytes, ...) -- Read from C cache (4 bytes @ 0x200002F0) - Data: 00 00 00 00  returns 0x00 (0000ms, 0240ms total)
T365C 014:240 JLINK_ReadMem (0x200002F4, 0x0004 Bytes, ...) -- Read from C cache (4 bytes @ 0x200002F4) - Data: 00 00 00 00  returns 0x00 (0000ms, 0240ms total)
T365C 014:240 JLINK_ReadMem (0x200002F8, 0x0004 Bytes, ...) -- Read from C cache (4 bytes @ 0x200002F8) - Data: 00 00 00 00  returns 0x00 (0000ms, 0240ms total)
T365C 014:240 JLINK_ReadMem (0x200002FC, 0x0004 Bytes, ...) -- Read from C cache (4 bytes @ 0x200002FC) - Data: 00 00 00 00  returns 0x00 (0000ms, 0240ms total)
T365C 014:240 JLINK_ReadMem (0x20000300, 0x0004 Bytes, ...) -- CPU_ReadMem(64 bytes @ 0x20000300) -- Updating C cache (64 bytes @ 0x20000300) -- Read from C cache (4 bytes @ 0x20000300) - Data: 00 00 00 00  returns 0x00 (0001ms, 0241ms total)
T365C 014:241 JLINK_ReadMem (0x20000304, 0x0001 Bytes, ...) -- Read from C cache (1 bytes @ 0x20000304) - Data: 00  returns 0x00 (0000ms, 0241ms total)
T365C 014:241 JLINK_ReadMem (0x20000306, 0x0002 Bytes, ...) -- Read from C cache (2 bytes @ 0x20000306) - Data: FF FF  returns 0x00 (0000ms, 0241ms total)
T365C 014:241 JLINK_ReadMem (0x20000308, 0x0004 Bytes, ...) -- Read from C cache (4 bytes @ 0x20000308) - Data: BC 01 00 20  returns 0x00 (0000ms, 0241ms total)
T365C 014:241 JLINK_ReadMem (0x2000030C, 0x0004 Bytes, ...) -- Read from C cache (4 bytes @ 0x2000030C) - Data: 00 00 02 40  returns 0x00 (0000ms, 0241ms total)
T365C 014:241 JLINK_ReadMem (0x20000310, 0x0002 Bytes, ...) -- Read from C cache (2 bytes @ 0x20000310) - Data: 10 00  returns 0x00 (0000ms, 0241ms total)
T1AB8 039:564 JLINK_Step() -- Read from C cache (2 bytes @ 0x08002B28) -- CPU_ReadMem(4 bytes @ 0xE000ED18) -- CPU_WriteMem(4 bytes @ 0xE000ED18) -- CPU_ReadMem(4 bytes @ 0xE000ED18) -- CPU_WriteMem(4 bytes @ 0xE000ED18) -- Read from C cache (4 bytes @ 0x08002B48) -- Simulated  returns 0x00 (0003ms, 0244ms total)
T1AB8 039:567 JLINK_ReadReg(R15 (PC))  returns 0x08002B2A (0000ms, 0244ms total)
T1AB8 039:567 JLINK_ReadReg(XPSR)  returns 0x21000000 (0000ms, 0244ms total)
T1AB8 039:567 JLINK_SetBPEx(Addr = 0x08002B28, Type = 0xFFFFFFF2)  returns 0x00000004 (0000ms, 0244ms total)
T1AB8 039:567 JLINK_Go() -- CPU_WriteMem(4 bytes @ 0xE0002000) -- CPU_ReadMem(4 bytes @ 0xE0001000) -- CPU_WriteMem(4 bytes @ 0xE0001004) (0002ms, 0246ms total)
T1AB8 039:670 JLINK_IsHalted()  returns FALSE (0000ms, 0246ms total)
T1AB8 039:771 JLINK_IsHalted()  returns FALSE (0000ms, 0246ms total)
T1AB8 039:872 JLINK_IsHalted()  returns FALSE (0000ms, 0246ms total)
T1AB8 039:974 JLINK_IsHalted()  returns FALSE (0000ms, 0246ms total)
T1AB8 040:075 JLINK_IsHalted()  returns FALSE (0000ms, 0246ms total)
T1AB8 040:176 JLINK_ReadMemU32(0xE0001004, 0x0001 Items, ...) -- CPU is running -- CPU_ReadMem(4 bytes @ 0xE0001004) - Data: BB 2F F1 0B  returns 0x01 (0000ms, 0246ms total)
T365C 040:176 JLINK_ReadMem (0x200002E8, 0x0004 Bytes, ...) -- CPU is running -- CPU_ReadMem(4 bytes @ 0x200002E8) - Data: 9A CD CC BD  returns 0x00 (0001ms, 0247ms total)
T365C 040:178 JLINK_ReadMem (0x200002EC, 0x0004 Bytes, ...) -- CPU is running -- CPU_ReadMem(4 bytes @ 0x200002EC) - Data: 9A CD CC BD  returns 0x00 (0000ms, 0247ms total)
T365C 040:179 JLINK_ReadMem (0x200002F0, 0x0004 Bytes, ...) -- CPU is running -- CPU_ReadMem(4 bytes @ 0x200002F0) - Data: 9A CD CC BD  returns 0x00 (0000ms, 0247ms total)
T365C 040:180 JLINK_ReadMem (0x200002F4, 0x0004 Bytes, ...) -- CPU is running -- CPU_ReadMem(4 bytes @ 0x200002F4) - Data: AE D7 A3 BA  returns 0x00 (0001ms, 0248ms total)
T365C 040:182 JLINK_ReadMem (0x200002F8, 0x0004 Bytes, ...) -- CPU is running -- CPU_ReadMem(4 bytes @ 0x200002F8) - Data: AE D7 A3 BA  returns 0x00 (0000ms, 0248ms total)
T365C 040:182 JLINK_ReadMem (0x200002FC, 0x0004 Bytes, ...) -- CPU is running -- CPU_ReadMem(4 bytes @ 0x200002FC) - Data: AE D7 A3 BA  returns 0x00 (0001ms, 0249ms total)
T365C 040:183 JLINK_ReadMem (0x20000300, 0x0004 Bytes, ...) -- CPU is running -- CPU_ReadMem(4 bytes @ 0x20000300) - Data: 00 CC CC 45  returns 0x00 (0000ms, 0249ms total)
T365C 040:183 JLINK_ReadMem (0x20000304, 0x0001 Bytes, ...) -- CPU is running -- CPU_ReadMem(1 bytes @ 0x20000304) - Data: 00  returns 0x00 (0001ms, 0250ms total)
T365C 040:184 JLINK_ReadMem (0x20000306, 0x0002 Bytes, ...) -- CPU is running -- CPU_ReadMem(2 bytes @ 0x20000306) - Data: FF FF  returns 0x00 (0000ms, 0250ms total)
T365C 040:184 JLINK_ReadMem (0x20000308, 0x0004 Bytes, ...) -- CPU is running -- CPU_ReadMem(4 bytes @ 0x20000308) - Data: BC 01 00 20  returns 0x00 (0001ms, 0251ms total)
T365C 040:185 JLINK_ReadMem (0x2000030C, 0x0004 Bytes, ...) -- CPU is running -- CPU_ReadMem(4 bytes @ 0x2000030C) - Data: 00 00 02 40  returns 0x00 (0000ms, 0251ms total)
T365C 040:185 JLINK_ReadMem (0x20000310, 0x0002 Bytes, ...) -- CPU is running -- CPU_ReadMem(2 bytes @ 0x20000310) - Data: 10 00  returns 0x00 (0000ms, 0251ms total)
T365C 040:185 JLINK_ReadMem (0x20000090, 0x0002 Bytes, ...) -- CPU is running -- CPU_ReadMem(2 bytes @ 0x20000090) - Data: FF FF  returns 0x00 (0000ms, 0251ms total)
T365C 040:186 JLINK_ReadMem (0x40004800, 0x0018 Bytes, ...) -- CPU is running -- CPU_ReadMem(24 bytes @ 0x40004800) - Data: C0 00 00 00 00 00 00 00 87 01 00 00 0C 20 00 00 ...  returns 0x00 (0001ms, 0252ms total)
T365C 040:187 JLINK_ReadMem (0x40004818, 0x0004 Bytes, ...) -- CPU is running -- CPU_ReadMem(4 bytes @ 0x40004818) - Data: 00 00 00 00  returns 0x00 (0000ms, 0252ms total)
T365C 040:187 JLINK_ReadMem (0x40020800, 0x0014 Bytes, ...) -- CPU is running -- CPU_ReadMem(20 bytes @ 0x40020800) - Data: 00 05 00 00 00 00 00 00 00 00 00 00 00 00 00 00 ...  returns 0x00 (0000ms, 0252ms total)
T365C 040:187 JLINK_ReadMem (0x40020814, 0x0004 Bytes, ...) -- CPU is running -- CPU_ReadMem(4 bytes @ 0x40020814) - Data: 10 00 00 00  returns 0x00 (0001ms, 0253ms total)
T365C 040:188 JLINK_ReadMem (0x4002081C, 0x0008 Bytes, ...) -- CPU is running -- CPU_ReadMem(8 bytes @ 0x4002081C) - Data: 00 00 00 00 00 00 00 00  returns 0x00 (0000ms, 0253ms total)
T365C 040:188 JLINK_ReadMem (0x40020824, 0x0004 Bytes, ...) -- CPU is running -- CPU_ReadMem(4 bytes @ 0x40020824) - Data: 00 00 00 00  returns 0x00 (0000ms, 0253ms total)
T365C 040:188 JLINK_ReadMem (0x40020000, 0x0014 Bytes, ...) -- CPU is running -- CPU_ReadMem(20 bytes @ 0x40020000) - Data: 00 A9 28 A8 00 00 00 00 00 FF 3C 0C 00 00 14 64 ...  returns 0x00 (0001ms, 0254ms total)
T365C 040:189 JLINK_ReadMem (0x40020014, 0x0004 Bytes, ...) -- CPU is running -- CPU_ReadMem(4 bytes @ 0x40020014) - Data: 10 00 00 00  returns 0x00 (0000ms, 0254ms total)
T365C 040:189 JLINK_ReadMem (0x4002001C, 0x0008 Bytes, ...) -- CPU is running -- CPU_ReadMem(8 bytes @ 0x4002001C) - Data: 00 00 00 00 00 00 50 55  returns 0x00 (0000ms, 0254ms total)
T365C 040:189 JLINK_ReadMem (0x40020024, 0x0004 Bytes, ...) -- CPU is running -- CPU_ReadMem(4 bytes @ 0x40020024) - Data: 70 07 00 00  returns 0x00 (0001ms, 0255ms total)
T1AB8 040:190 JLINK_IsHalted()  returns FALSE (0000ms, 0255ms total)
T1AB8 040:291 JLINK_IsHalted()  returns FALSE (0000ms, 0255ms total)
T1AB8 040:392 JLINK_IsHalted()  returns FALSE (0000ms, 0255ms total)
T1AB8 040:493 JLINK_IsHalted()  returns FALSE (0000ms, 0255ms total)
T1AB8 040:594 JLINK_IsHalted()  returns FALSE (0000ms, 0255ms total)
T1AB8 040:695 JLINK_ReadMemU32(0xE0001004, 0x0001 Items, ...) -- CPU is running - Data: BB 2F F1 0B  returns 0x01 (0000ms, 0255ms total)
T365C 040:695 JLINK_ReadMem (0x200002E8, 0x0004 Bytes, ...) -- CPU is running -- CPU_ReadMem(4 bytes @ 0x200002E8) - Data: 9A CD CC BD  returns 0x00 (0000ms, 0255ms total)
T365C 040:695 JLINK_ReadMem (0x200002EC, 0x0004 Bytes, ...) -- CPU is running -- CPU_ReadMem(4 bytes @ 0x200002EC) - Data: 9A CD CC BD  returns 0x00 (0001ms, 0256ms total)
T365C 040:696 JLINK_ReadMem (0x200002F0, 0x0004 Bytes, ...) -- CPU is running -- CPU_ReadMem(4 bytes @ 0x200002F0) - Data: 9A CD CC BD  returns 0x00 (0001ms, 0257ms total)
T365C 040:697 JLINK_ReadMem (0x200002F4, 0x0004 Bytes, ...) -- CPU is running -- CPU_ReadMem(4 bytes @ 0x200002F4) - Data: AE D7 A3 BA  returns 0x00 (0000ms, 0257ms total)
T365C 040:697 JLINK_ReadMem (0x200002F8, 0x0004 Bytes, ...) -- CPU is running -- CPU_ReadMem(4 bytes @ 0x200002F8) - Data: AE D7 A3 BA  returns 0x00 (0001ms, 0258ms total)
T365C 040:698 JLINK_ReadMem (0x200002FC, 0x0004 Bytes, ...) -- CPU is running -- CPU_ReadMem(4 bytes @ 0x200002FC) - Data: AE D7 A3 BA  returns 0x00 (0000ms, 0258ms total)
